##### i2cdump -y 1 40
No size specified (using byte-data access)
     0  1  2  3  4  5  6  7  8  9  a  b  c  d  e  f    0123456789abcdef
00: 00 00 00 00 00 00 12 00 11 20 00 00 fb 00 41 00    ......?.? ..?.A.
10: 0a 1c 00 40 00 82 00 08 00 00 00 21 01 80 00 00    ??.@.?.?...!??..
20: 10 c8 5f 00 00 9c 00 02 02 18 00 32 05 00 00 25    ??_..?.???.2?..%
30: 00 66 05 51 2a 14 02 20 d1 02 00 2c c1 03 00 2c    .f?Q*?? ??.,??.,
40: b1 04 00 45 41 06 00 3c 21 dc c0 ed fa 18 e3 00    ??.EA?.<!??????.
50: 00 00 00 00 00 00 00 00 00 00 00 00 00 00 00 00    ................
60: 00 00 00 00 00 00 00 00 00 00 00 00 00 00 00 00    ................
70: 43 c8 90 01 08 64 d0 02 00 2c b1 04 00 f4 b1 04    C????d??.,??.???
80: 00 5e fd 01 00 96 90 01 10 96 b0 04 00 64 40 06    .^??.???????.d@?
90: 00 45 91 01 50 00 40 00 00 00 00 00 00 00 00 00    .E??P.@.........
a0: 00 00 00 00 00 00 00 00 00 00 00 00 00 00 00 00    ................
b0: 00 00 00 00 00 00 00 00 00 00 00 00 00 00 00 00    ................
c0: 00 00 00 00 00 00 00 00 00 00 00 00 00 00 00 00    ................
d0: 00 00 00 00 00 00 00 00 00 00 00 00 00 00 00 00    ................
e0: 00 00 00 00 00 00 00 00 00 00 00 00 00 00 00 00    ................
f0: 00 00 00 00 00 00 00 00 00 00 00 00 00 00 00 00    ................
